!Keysight Technologies N9916A: A.13.10
!Date: Thursday, 20 November 2025 13:15:58
!TimeZone: (UTC-06:00) Central Time (US & Canada)!Model: N9916A
!Serial: MY57273160
!GPS Latitude: 
!GPS Longitude: 
!GPS TimeStamp: 0001-01-01 00:00:00Z
!GPS Seconds Since Last Read: 0
!CHECKSUM:1961630093
!Correction: S11(ON U)
!S1P File: Measurement: S11:
# Hz S DB R 50
12000000	-0.461206399810504	-157.165931352732
12090000	-0.472680111396509	-161.116409400978
12180000	-0.463967381866308	-164.915799060111
12270000	-0.444682817188864	-168.76989106806
12360000	-0.419938672392887	-172.676243360616
12450000	-0.404687047404785	-176.435650883264
12540000	-0.398444225386382	179.586737016878
12630000	-0.389524505853607	175.749586079499
12720000	-0.394696711250043	172.029243155767
12810000	-0.367560972317151	168.230803106115
12900000	-0.360691929102692	164.365128889669
12990000	-0.381850218325482	160.455242659489
13080000	-0.36330255951295	156.817809471937
13170000	-0.373165179510961	153.05535227523
13260000	-0.352597107759897	149.324452537603
13350000	-0.372797085235997	145.581297844533
13440000	-0.357844928082836	141.757148504985
13530000	-0.37598507516518	137.977978325592
13620000	-0.373791121754834	134.298709275253
13710000	-0.397860551215477	130.607633686767
13800000	-0.396380198429276	126.962228308735
13890000	-0.402278816568892	123.564885794217
13980000	-0.419807406050026	119.672826116953
14070000	-0.448992366609233	116.230207032698
14160000	-0.46358659117375	112.644836044868
14250000	-0.493500968002824	109.242783931279
14340000	-0.493073819613844	105.722620416071
14430000	-0.513166578255199	102.262410520076
14520000	-0.571839210784096	98.8561900878229
14610000	-0.604104127181953	95.409551820791
14700000	-0.651061468090546	92.0488473790252
14790000	-0.688965521722015	88.7362159053323
14880000	-0.698044047056408	85.7148105949786
14970000	-0.763006133840455	82.5158283092364
15060000	-0.795249960926601	79.3724859532677
15150000	-0.831824669067851	76.4994695535285
15240000	-0.787263143983469	73.3296249667222
15330000	-0.795288260317033	70.3239662011134
15420000	-0.794469237625419	67.1072222017757
15510000	-0.775001522257073	63.9891902347773
15600000	-0.760273551752643	60.4043874300812
15690000	-0.769197822237292	57.1180947519998
15780000	-0.738926640156514	53.5799616700361
15870000	-0.776601900789852	50.1052251208469
15960000	-0.789949761395936	46.9530831113163
16050000	-0.787434567644998	43.1366244635898
16140000	-0.793083512470533	39.7600884228074
16230000	-0.815075779627934	36.3005530161782
16320000	-0.836243896079725	32.6531846577292
16410000	-0.865281052209265	29.0609614248235
16500000	-0.886000271694697	25.334105689273
16590000	-0.882256356528247	21.7541812467982
16680000	-0.91730894674191	17.9028448001542
16770000	-0.934783920919974	14.0650434762022
16860000	-0.971061394298499	10.1407403857079
16950000	-0.99389113807079	6.1911632002673
17040000	-0.990719523553457	1.97473464283778
17130000	-1.02757405808252	-2.21039640096588
17220000	-1.05080617160071	-6.38565208453863
17310000	-1.0892487800647	-10.9390661784245
17400000	-1.09138437005298	-15.5172018891786
17490000	-1.12224597103948	-20.1505629555082
17580000	-1.14313454531442	-24.9985774698638
17670000	-1.16629568801744	-30.075031396455
17760000	-1.17313805821213	-35.3713993327027
17850000	-1.18378415942999	-40.8582766848542
17940000	-1.24481533905285	-46.5760671207414
18030000	-1.2377797171888	-52.4606757623963
18120000	-1.24656259766521	-58.4893217383347
18210000	-1.24620457132908	-65.084252948033
18300000	-1.28589096709814	-71.8204892427451
18390000	-1.30345349561036	-79.1074059889784
18480000	-1.31011635278488	-86.5339389734093
18570000	-1.32483283563272	-94.5706471012917
18660000	-1.30329507697245	-103.146004481483
18750000	-1.41448655165257	-112.279051343085
18840000	-1.5552021549995	-122.010893383456
18930000	-1.93019023118493	-131.840728784291
19020000	-2.5093741309635	-139.200141084427
19110000	-2.46898241113571	-143.606117952119
19200000	-1.9391410247782	-151.904601428891
19290000	-1.5672131049039	-162.75808365335
19380000	-1.36043946719016	-174.296964411846
19470000	-1.22747006300267	173.828521022152
19560000	-1.15023030574326	161.776514571763
19650000	-1.08443980939372	149.313101648779
19740000	-1.04971134946757	136.689878651866
19830000	-1.05076369102632	123.510068315428
19920000	-1.07689776182907	109.783987290656
20010000	-1.16872114193002	95.3240116655962
20100000	-1.30168236345392	79.9348821435733
20190000	-1.60471685212224	63.2352349934628
20280000	-2.04012393053051	44.7817083244661
20370000	-2.76144416744734	23.5934491970867
20460000	-3.99445952901776	-1.04207934021885
20550000	-5.99939593850345	-30.2200576267163
20640000	-9.06314690813939	-68.7155029696857
20730000	-13.2631165198819	-118.419082998772
20820000	-15.6334982702387	170.125264136797
20910000	-17.2541159655439	110.472396466296
21000000	-17.5090128093085	126.127850753217
21090000	-12.2394625048201	106.686259528017
21180000	-10.3383669810527	82.3961175357859
21270000	-9.44572860623164	62.2082767368934
21360000	-9.17325493409526	43.9680630662583
21450000	-9.14249438935155	26.8972704456538
21540000	-9.24151858945063	9.77078854017056
21630000	-9.5252975887403	-7.5308546624134
21720000	-9.75345020047473	-25.8108723042821
21810000	-10.1127896598729	-44.8543194435979
21900000	-10.2502484095824	-64.9326098723284
21990000	-10.3450926864117	-86.375939784234
22080000	-10.1744361607894	-107.790724002196
22170000	-9.88800957906091	-128.770982568705
22260000	-9.32901209544583	-149.02395191723
22350000	-8.75082834242639	-167.566999952411
22440000	-8.11087539098406	174.719676100788
22530000	-7.51006102515864	158.370981597241
22620000	-7.01828262040881	141.948650255912
22710000	-7.0861690501225	125.613363266785
22800000	-7.21155414037036	116.141148854556
22890000	-6.77951466408378	105.487643492091
22980000	-6.49974679772792	93.4170903801465
23070000	-6.36725192230255	81.9352689084535
23160000	-6.33863642286011	70.1332661003886
23250000	-6.42227674332286	58.171584898504
23340000	-6.58322856591473	46.2092411755678
23430000	-6.84970561522312	33.9769197754118
23520000	-7.19540840900337	21.3684891054154
23610000	-7.64816184765137	7.58316021505879
23700000	-8.23748600479884	-7.10183715630145
23790000	-8.87428648934798	-22.8852588036681
23880000	-9.61965777015591	-40.4601212779308
23970000	-10.327814849764	-60.1700582376425
24060000	-10.8693798054802	-81.3500734546209
24150000	-11.2580825048815	-105.25157454812
24240000	-11.202710481047	-129.195031767903
24330000	-10.9347609917237	-153.442231189279
24420000	-10.3650292446267	-176.543539453384
24510000	-9.97361246201646	159.496485642053
24600000	-11.205381397658	139.153448962838
24690000	-10.9956396313733	136.466396329546
24780000	-9.91858182958587	124.060373337244
24870000	-9.35168955259958	110.05801924574
24960000	-9.11235503846632	96.6916332032968
25050000	-9.04606209138115	84.0057816969006
25140000	-9.16454554931514	71.0881384964414
25230000	-9.39506950699774	58.0629192490996
25320000	-9.76218553700348	45.354640488742
25410000	-10.3047214261127	31.6937150135123
25500000	-10.9511755108241	17.1769940333318
25590000	-11.7579678921064	1.16919091286552
25680000	-12.5786500652154	-16.7931385499599
25770000	-13.3049905100857	-37.6139934979599
25860000	-13.8250014246991	-60.457610631674
25950000	-13.8336012277454	-85.1514989978809
26040000	-13.3290482914826	-109.302065268885
26130000	-12.3776425002819	-131.096834854007
26220000	-11.4059635364594	-150.053054481445
26310000	-10.2995538011506	-166.498635916031
26400000	-9.2833092886592	178.738876263285
26490000	-8.4168847435505	165.989340818871
26580000	-7.6702753025314	154.122273391417
26670000	-7.01777141856583	143.545623623568
26760000	-6.36155171124411	132.814635340193
26850000	-6.03179297608733	121.669142814073
26940000	-5.80006368849578	112.311139930284
27030000	-5.50981685119778	103.220504923545
27120000	-5.4267103785435	94.6856063923607
27210000	-5.3035468175369	85.9838544624862
27300000	-5.24054903570583	77.2890461434953
27390000	-5.22443438690846	68.4583034059411
27480000	-5.29865343333405	59.8068110965579
27570000	-5.38471370609229	50.6761254306385
27660000	-5.48588359615649	41.3775067733394
27750000	-5.69314114362259	31.602221590332
27840000	-5.93149926171152	21.3373112183262
27930000	-6.21814321952712	10.3533194880257
28020000	-6.53479165858952	-1.01106226051071
28110000	-6.91831027636737	-13.5254507775983
28200000	-7.2409408387824	-26.6582055503812
28290000	-7.60939705117899	-40.6718949833016
28380000	-7.92599415160491	-55.9860315931883
28470000	-8.16615556449532	-71.9066192138703
28560000	-8.2018519070931	-88.4409590425378
28650000	-8.24904951962454	-104.690468017617
28740000	-8.10024875150662	-120.707346962145
28830000	-7.89019573556574	-135.917561159376
28920000	-7.62161476888526	-150.567417557132
29010000	-7.31360623018166	-164.283085624651
29100000	-7.06776195801433	-177.139013653893
29190000	-6.95810505212502	170.671754214345
29280000	-7.14040382485815	161.308243668402
29370000	-6.78775987422431	153.003836369282
29460000	-6.49476009362011	143.622742007434
29550000	-6.42575821864894	134.046876044781
29640000	-6.42778202984646	125.298211070822
29730000	-6.52407907062199	116.843454183211
29820000	-6.65736291723354	108.260040559918
29910000	-6.92102747618002	99.823544249774
30000000	-7.27011604572291	91.9508191840117
