!Keysight Technologies N9916A: A.13.10
!Date: Tuesday, 11 November 2025 18:37:39
!TimeZone: (UTC-06:00) Central Time (US & Canada)!Model: N9916A
!Serial: MY57273160
!GPS Latitude: 
!GPS Longitude: 
!GPS TimeStamp: 0001-01-01 00:00:00Z
!GPS Seconds Since Last Read: 0
!CHECKSUM:0672970959
!Correction: S11(ON U)
!S1P File: Measurement: S11:
# Hz S DB R 50
10000000	-0.688778324732787	-76.3776010897313
10150000	-0.67653751735837	-81.2826490958048
10300000	-0.638359705134533	-86.3616812412223
10450000	-0.608955087258942	-91.6199251104294
10600000	-0.613911895611047	-96.8183068448942
10750000	-0.601783618233184	-102.397215338931
10900000	-0.568877175093682	-108.157505691243
11050000	-0.521674519502514	-113.658940687606
11200000	-0.5305792462699	-119.475684003281
11350000	-0.484191589495886	-125.409483994441
11500000	-0.44853842068999	-131.64610478315
11650000	-0.43108867471963	-137.588987116967
11800000	-0.430225299190813	-143.660287704369
11950000	-0.394887047336435	-150.207371366102
12100000	-0.396036473730783	-156.501040702222
12250000	-0.370784599828126	-162.886390976426
12400000	-0.354681314403256	-169.430905056573
12550000	-0.348243393891953	-175.936815684254
12700000	-0.348961791011035	177.463267155053
12850000	-0.359177461517666	170.8485036993
13000000	-0.343275446602355	164.309553546379
13150000	-0.33837690849766	157.640301214838
13300000	-0.363709436366484	151.203240683735
13450000	-0.363806529120769	144.58630080597
13600000	-0.385294874509058	138.142620988531
13750000	-0.411779828750191	131.613802922036
13900000	-0.43326629319066	125.102599260045
14050000	-0.473196627227565	118.921073988542
14200000	-0.492575519306848	112.452014971317
14350000	-0.517440344953382	106.213336758248
14500000	-0.540268083422612	100.106451672245
14650000	-0.604943331788433	93.734548633505
14800000	-0.667284503263118	87.7661759198044
14950000	-0.710432100933063	81.5817171261934
15100000	-0.825450405232117	75.7744657235913
15250000	-0.865840981197223	69.8652610293449
15400000	-0.944909413663594	64.50273946088
15550000	-0.945189959923275	58.7680944230975
15700000	-0.916516284095971	53.010699479986
15850000	-0.88409957330226	47.0839564769571
16000000	-0.873949656630669	40.9856134316824
16150000	-0.830763277280711	34.6042643407003
16300000	-0.858664016351989	28.1715869707029
16450000	-0.874002751735655	21.5670203147594
16600000	-0.894449043626256	14.7545945280532
16750000	-0.90174921546518	7.852710768419
16900000	-0.935491399236489	0.936420104340601
17050000	-0.94959383361137	-6.26702421135807
17200000	-0.954094776421782	-13.7771449739936
17350000	-0.974951781421408	-21.6114254063055
17500000	-1.01398471590755	-29.8454146887851
17650000	-1.02386380199784	-38.3655464329915
17800000	-1.03524841590879	-47.2397069239613
17950000	-1.05491931136706	-56.6868000836649
18100000	-1.06281774623419	-66.8814141031409
18250000	-1.04463680538779	-77.3700514915256
18400000	-1.03592759584845	-88.6670076942965
18550000	-1.03388424695854	-100.816293561902
18700000	-1.04876966798567	-113.847235319382
18850000	-1.07041409089156	-127.684763312765
19000000	-1.18533438613747	-142.236674760087
19150000	-1.33885184883214	-156.479544607045
19300000	-1.25048165969136	-171.103829760919
19450000	-1.08933988182559	171.95033335437
19600000	-0.994196234822053	153.372116228129
19750000	-1.0073925019323	133.667137311226
19900000	-1.05508959811144	111.605504941851
20050000	-1.28798769319066	87.606247507413
20200000	-1.79100567464631	59.7114676524257
20350000	-2.92764052744772	26.6248460020977
20500000	-5.41057888764623	-13.2297145316934
20650000	-9.90730737194613	-61.5673122644401
20800000	-16.0704015272375	-132.204689109814
20950000	-16.8515443432536	140.099682518472
21100000	-14.7653549795895	91.4004712971921
21250000	-13.5513836761836	58.442066518212
21400000	-13.275201335674	28.2252300376307
21550000	-13.5507294648187	-2.06994456596239
21700000	-14.0817868544127	-34.6779542120831
21850000	-14.4111749299618	-70.4552730054035
22000000	-14.1196673137174	-107.098957344455
22150000	-13.0862209852429	-142.107505179185
22300000	-11.9137804015392	-173.875326703966
22450000	-10.795525432928	157.924190408019
22600000	-10.297710309489	130.407616425325
22750000	-10.6752466912418	113.519126302439
22900000	-9.78325092169584	95.546105350818
23050000	-9.37081136331198	74.4510632450579
23200000	-9.38594466761448	52.9135197527164
23350000	-9.67883999582064	30.4278345622272
23500000	-10.2106786504508	6.63423909071747
23650000	-10.9458373790164	-19.5766676994086
23800000	-11.7019353738958	-48.3930725626711
23950000	-12.2220841684227	-79.6137991858998
24100000	-12.2605812660375	-111.827159511946
24250000	-11.997387366674	-142.516014844023
24400000	-11.3802288449507	-172.288900088178
24550000	-11.1952840921984	156.954662932973
24700000	-12.294326977173	135.064058745217
24850000	-12.744859759503	119.010671162322
25000000	-13.4026653910646	101.373886125439
25150000	-14.5486142372466	84.3988330043972
25300000	-16.5631946335921	66.3653392103883
25450000	-19.6579669431495	46.0155894871927
25600000	-25.5311789474604	18.0212334671115
25750000	-30.7059985496095	-83.9875288714975
25900000	-22.1443589793336	-144.52203647749
26050000	-17.2647412131335	-166.544032132658
26200000	-14.2083139093733	176.919730348417
26350000	-12.1175643274841	162.141991722021
26500000	-10.7173471417289	148.295151941897
26650000	-9.70080929905402	135.839798353162
26800000	-8.81211700230768	123.965177842525
26950000	-8.18102582251218	111.129326525493
27100000	-7.7853589639436	98.3918889718049
27250000	-7.70739394360275	85.4070913850438
27400000	-7.74484784508353	72.3749144565381
27550000	-7.94477990703765	59.3139513149094
27700000	-8.38052735994481	44.5651480196399
27850000	-9.00437558056911	29.4702945942107
28000000	-9.80763166638231	13.122796569458
28150000	-10.8003490327359	-5.17559922721408
28300000	-11.993102779368	-25.9091151542971
28450000	-13.1829596347655	-49.3452461956058
28600000	-14.0742953902467	-74.3680915677691
28750000	-14.5262867228783	-98.8421167620679
28900000	-14.2742053194337	-119.603291943641
29050000	-13.2006864709102	-137.199846736665
29200000	-11.2117769621296	-158.365674878786
29350000	-10.6539268020474	175.756258865943
29500000	-11.4114798760409	156.448643456701
29650000	-12.4326196739417	143.184825514399
29800000	-13.7646571407205	134.329460128485
29950000	-15.4781104252468	129.403855833308
30100000	-17.562665387247	131.432696994874
30250000	-19.4812803928594	146.029833928263
30400000	-19.1785096357783	167.470459827055
30550000	-16.9421559514027	-177.002248507421
30700000	-14.9633950752252	-179.589684643523
30850000	-11.9917544265399	-173.955033381229
31000000	-10.2146182313176	-177.710700193005
31150000	-8.80483371242133	177.082920283576
31300000	-7.6314309006478	171.582297183622
31450000	-6.67503241936656	165.940560945738
31600000	-5.97190312749468	160.303015690744
31750000	-5.33765043615961	154.968115386219
31900000	-4.86954525060571	149.681640073801
32050000	-4.49235975762904	144.926137652182
32200000	-4.18374641566961	140.739397186859
32350000	-3.95159258225322	137.525332841853
32500000	-3.65186483993035	135.23233702153
32650000	-3.08347116041997	132.068195229358
32800000	-2.63542299241692	127.427827186313
32950000	-2.39793371603602	122.902850733351
33100000	-2.23137328245054	118.913113054151
33250000	-2.11564436760288	115.501498318259
33400000	-2.03703336388016	111.908892463545
33550000	-1.95055297435519	108.703649397732
33700000	-1.8644444328892	105.801211289989
33850000	-1.7777777802442	102.968270768179
34000000	-1.72015020305001	100.437039422571
34150000	-1.69161577900195	97.6955506388405
34300000	-1.6100721461035	95.1816774843323
34450000	-1.54249137109894	93.0345461212745
34600000	-1.54152089577544	90.7465859477654
34750000	-1.4848313209239	88.4928464827708
34900000	-1.45145734906592	86.294903732201
35050000	-1.4196694962311	84.3387367577444
35200000	-1.3837454636592	82.3958737533758
35350000	-1.34639665740674	80.4666470830705
35500000	-1.31974234472876	78.6906762557118
35650000	-1.29082592028157	76.6529131948183
35800000	-1.28717456265092	74.9483465267346
35950000	-1.27362544747066	73.3095504136297
36100000	-1.26439398661673	71.7050255890704
36250000	-1.19994788155715	70.0970372608258
36400000	-1.20895872142618	68.537751430921
36550000	-1.18396339857757	66.8631701828254
36700000	-1.15320678200065	65.1961123850127
36850000	-1.12561733408303	63.7919488814983
37000000	-1.15141793703575	62.2012736549595
37150000	-1.12460083117299	60.911425318408
37300000	-1.11753043763097	59.4467444347819
37450000	-1.10498123879132	58.0420211062473
37600000	-1.0810112838525	56.6657873805028
37750000	-1.07818292845177	55.3280119807884
37900000	-1.08090558707535	54.0974085284469
38050000	-1.06215574149114	52.6217545591253
38200000	-1.050110850183	51.3121712716656
38350000	-1.05516535835789	50.1172354756528
38500000	-1.02723207809341	48.8136745887034
38650000	-1.02158550434903	47.5770195348951
38800000	-1.01693334157358	46.3284778837832
38950000	-1.00530128962758	45.1889917141115
39100000	-1.00770205783526	43.8986611322677
39250000	-0.998669572457775	42.9295675647845
39400000	-0.993130598781941	41.5137621817243
39550000	-0.967022861679572	40.4446901224886
39700000	-1.00015745117768	39.183888636258
39850000	-0.9660299131106	38.2657153349881
40000000	-0.960843633768098	37.1647694541789
