!Keysight Technologies N9916A: A.13.10
!Date: Sunday, 16 November 2025 17:27:54
!TimeZone: (UTC-06:00) Central Time (US & Canada)!Model: N9916A
!Serial: MY57273160
!GPS Latitude: 
!GPS Longitude: 
!GPS TimeStamp: 0001-01-01 00:00:00Z
!GPS Seconds Since Last Read: 0
!CHECKSUM:1760916010
!Correction: S11(Rdy)
!S1P File: Measurement: S11:
# Hz S DB R 50
12000000	-1.75715428890254	-92.7289717141016
12075000	-1.62831536944623	-121.99933489455
12150000	-1.54546953058039	-150.071349001385
12225000	-1.63744504509485	-175.758257671932
12300000	-1.73577051579975	162.108088085293
12375000	-1.90898438855047	142.96249871427
12450000	-2.13663572217997	126.494063335881
12525000	-2.4369199085392	111.764664662579
12600000	-2.78120401503287	98.3573756345882
12675000	-3.25060326350761	85.982831599088
12750000	-3.86812727582835	73.9298905718869
12825000	-4.73513349709815	61.9911710728234
12900000	-6.04662808959045	50.2405907685373
12975000	-8.08293991024337	39.2569458680186
13050000	-11.3909154478308	31.1005702338161
13125000	-17.1730327409643	40.1007647093448
13200000	-18.3784823661016	100.347666660183
13275000	-12.3596265727643	116.936069447835
13350000	-8.81555805342577	110.975619098159
13425000	-6.72361902705694	101.471492976489
13500000	-5.46437635521543	91.6211323658984
13575000	-4.65194785989255	82.1936780444762
13650000	-4.12154884244164	73.5131134093218
13725000	-3.76412642129825	65.3586386228485
13800000	-3.56965326332441	57.4507474636954
13875000	-3.45320825083089	49.8823681251849
13950000	-3.42796709513013	42.6253103973013
14025000	-3.39070177489586	35.5477899276168
14100000	-3.58304450192901	28.0774272314351
14175000	-3.78021073558276	20.620703644339
14250000	-4.08608929864679	13.0899552637459
14325000	-4.54859536540562	4.9538653173156
14400000	-5.25469210807294	-3.32590858762217
14475000	-6.28264561958348	-12.2225684509194
14550000	-7.85567233128585	-21.0537275804689
14625000	-10.3450686392925	-28.7316703248827
14700000	-14.5965535608791	-29.4902538088104
14775000	-20.2094621738433	5.84104094099812
14850000	-15.9372483537237	53.6508647478961
14925000	-11.2158211996926	57.2880963785722
15000000	-8.2792873631926	50.8991165089568
15075000	-6.71655504956107	42.1733028358791
15150000	-5.63611485049791	33.5395248040966
15225000	-4.8635927767792	25.2857742038524
15300000	-4.3486352496309	17.5077370975151
15375000	-4.04903607691059	10.2272876045527
15450000	-3.84004264690268	3.04745779760985
15525000	-3.74313774908448	-3.69121792510174
15600000	-3.70769416928728	-10.3109438449676
15675000	-3.74989208006412	-16.8693448938022
15750000	-3.86648597313362	-23.3457341531737
15825000	-4.07816879511062	-30.0441664045294
15900000	-4.40239592336383	-36.7195477499267
15975000	-4.86147597428553	-43.6294896968524
16050000	-5.51879460251643	-50.581307797851
16125000	-6.45642306614703	-57.5159936578622
16200000	-7.77003613802507	-64.1425607020302
16275000	-9.67549763024112	-68.8533427259166
16350000	-12.4673621026276	-68.3752909881104
16425000	-15.7728882716706	-53.4792485654401
16500000	-16.0133370959674	-20.4599181270647
16575000	-12.8019097986102	-2.39838534521903
16650000	-9.85706660137737	-1.25507441342381
16725000	-7.9001243613996	-5.75979406933757
16800000	-6.55131842221889	-11.9075725705675
16875000	-5.64352268819858	-18.2638339284958
16950000	-4.94591524843175	-24.1791256084311
17025000	-4.39744230798815	-30.2824575778222
17100000	-3.96749989737421	-36.1298086955256
17175000	-3.6395077491704	-41.9737284207007
17250000	-3.41206872499503	-47.7107598439145
17325000	-3.22511127697046	-53.3669483477843
17400000	-3.13790348251896	-59.0579101492013
17475000	-3.06862445423057	-64.6481789259484
17550000	-3.04648025202184	-69.9979493090963
17625000	-3.08971256128003	-75.4982805858379
17700000	-3.16505780371385	-81.2462768109517
17775000	-3.29104150709451	-86.8928585113233
17850000	-3.5049510043357	-92.7693258588797
17925000	-3.78446507117143	-98.9567358704381
18000000	-4.1799139554199	-105.253758529461
18075000	-4.74555459213672	-111.746035138197
18150000	-5.55223201214266	-118.758890989762
18225000	-6.61534908345728	-125.601731686109
18300000	-8.23811298108995	-131.765182458078
18375000	-10.5484307663849	-135.819544545645
18450000	-13.9792318670341	-132.534966607968
18525000	-17.6641347686428	-107.338388705248
18600000	-16.1066071650913	-68.3802708942907
18675000	-12.1901456880097	-56.5322360341855
18750000	-9.38827163367613	-57.2576300560339
18825000	-7.46657745303366	-62.5616232768975
18900000	-6.14603587863992	-68.8791528626597
18975000	-5.19635000313247	-75.4626030412827
19050000	-4.52589668252294	-81.900147801491
19125000	-4.04654189400304	-88.0969818856439
19200000	-3.68850709326294	-93.955543984949
19275000	-3.44069784672629	-99.4504270194838
19350000	-3.26647811060131	-104.716178142397
19425000	-3.15612005021843	-109.904418778832
19500000	-3.06622801444159	-114.795321061639
19575000	-3.03572538587428	-119.613447540208
19650000	-3.04104859853617	-124.296226487998
19725000	-3.08840013338153	-128.972901527149
19800000	-3.16040888389503	-133.504257037042
19875000	-3.27574637606868	-138.147294710516
19950000	-3.46290528978706	-142.503897685354
20025000	-3.65569489780884	-147.031761420129
20100000	-3.94775586293099	-151.393714516886
20175000	-4.2883191980093	-155.734176539654
20250000	-4.74303689056629	-159.779451749191
20325000	-5.29246519633351	-163.55384612162
20400000	-5.94418740635107	-166.73894111291
20475000	-6.74722865632176	-168.991542621795
20550000	-7.65231769863302	-169.826132627196
20625000	-8.67955545485786	-168.438254289046
20700000	-9.5801812650569	-163.943785757197
20775000	-10.0604040451642	-157.274591312154
20850000	-9.87791972179856	-148.883963438401
20925000	-9.12488916373277	-142.772431619965
21000000	-8.06195483695124	-139.722846432775
21075000	-7.00724201269245	-139.653000795167
21150000	-6.06066280685709	-141.494019808377
21225000	-5.26863722030049	-144.718845367653
21300000	-4.68987202065609	-148.505099524022
21375000	-4.2496972738792	-152.412632631095
21450000	-3.8789302342382	-156.255898637189
21525000	-3.56336397036359	-160.298002771676
21600000	-3.28300915235127	-164.291927655184
21675000	-3.06491286575901	-168.253473294762
21750000	-2.91397050261315	-172.279128234872
21825000	-2.75816701791328	-176.325823156514
21900000	-2.6494742818328	179.895302122122
21975000	-2.58250788281321	175.948438237943
22050000	-2.52369156896309	172.134005093716
22125000	-2.48455211645853	168.391217608327
22200000	-2.46741515813352	164.562344753924
22275000	-2.44848618881717	160.842386595662
22350000	-2.4612755095647	157.031776624936
22425000	-2.49185329034384	153.299513336819
22500000	-2.54505867912172	149.400711859834
22575000	-2.59680179386893	145.693537613355
22650000	-2.66802087839292	141.899667061371
22725000	-2.78129450303689	138.029648914648
22800000	-2.91805507236205	134.133448249323
22875000	-3.07555240726198	130.143879691609
22950000	-3.28218995111547	126.215616952339
23025000	-3.52744551494465	122.121565907762
23100000	-3.84860295471708	118.199736364158
23175000	-4.2161100502762	113.966494767066
23250000	-4.69940569404885	110.205092094282
23325000	-5.30540689291735	106.568004926822
23400000	-6.03495984243424	103.69951828061
23475000	-6.91986767052032	101.608380688642
23550000	-7.95944350513288	101.344796245984
23625000	-9.01227814117604	103.567737793276
23700000	-9.88716921276174	109.216068227797
23775000	-10.1914475329885	117.230652857645
23850000	-9.84896407196891	125.400258569512
23925000	-9.00775524840438	130.912210931604
24000000	-7.93802562113965	133.551700864373
24075000	-6.84746215286819	133.171098591249
24150000	-5.91937173400918	130.443676926374
24225000	-5.20013273692787	126.565854476421
24300000	-4.70904211032603	122.444342423332
24375000	-4.30134599840105	118.175853646809
24450000	-4.00997616310279	113.939284552036
24525000	-3.78790137119695	109.735897132325
24600000	-3.62307994967167	105.797292863262
24675000	-3.50040213781811	101.851615858114
24750000	-3.42510762779103	97.9262349516149
24825000	-3.360815237371	94.1927018340047
24900000	-3.32539982871158	90.4661937509349
24975000	-3.32390777425797	86.7977027488918
25050000	-3.32106023804443	83.1063556035425
25125000	-3.35869459186261	79.7040309367116
25200000	-3.40894329873726	76.1797398440971
25275000	-3.47453071008129	72.7311757982844
25350000	-3.56200789915171	69.3868773283278
25425000	-3.66603799593822	66.013465480921
25500000	-3.79584640547752	62.8007216375614
25575000	-3.93608922841013	59.4580148593472
25650000	-4.10519606592353	56.4291965008507
25725000	-4.31826715294357	53.3858247967349
25800000	-4.51331136959265	50.4542707726065
25875000	-4.77760598582554	47.7074638028825
25950000	-5.04531610159324	45.1218292588243
26025000	-5.34024180228675	43.0119051085433
26100000	-5.65612053856326	41.0588967032609
26175000	-6.00907914061128	39.4991361540394
26250000	-6.34736694538845	38.4878417185088
26325000	-6.66950272131118	37.9474743082224
26400000	-6.96585606197827	38.0444406395826
26475000	-7.14076773768461	38.5643929626665
26550000	-7.26632375843409	39.6238761739355
26625000	-7.27901187591584	40.6519252652102
26700000	-7.14422609201851	41.638788537907
26775000	-6.93217911667021	42.4076825617178
26850000	-6.64926018071801	42.5035569524498
26925000	-6.28645010280867	42.2673850382007
27000000	-5.91844287591628	41.4549945690292
