!Keysight Technologies N9916A: A.13.10
!Date: Tuesday, 18 November 2025 13:39:20
!TimeZone: (UTC-06:00) Central Time (US & Canada)!Model: N9916A
!Serial: MY57273160
!GPS Latitude: 
!GPS Longitude: 
!GPS TimeStamp: 0001-01-01 00:00:00Z
!GPS Seconds Since Last Read: 0
!CHECKSUM:1506351287
!Correction: S11(ON U)
!S1P File: Measurement: S11:
# Hz S DB R 50
10000000	-0.643457068102014	51.609071008441
10100000	-0.660706715914241	47.269609143012
10200000	-0.684358837040622	42.7765073190034
10300000	-0.684359923283762	38.1245294048132
10400000	-0.722853988928466	33.5047740094259
10500000	-0.743454268593935	28.694946342905
10600000	-0.763594873828419	23.8741097990697
10700000	-0.787199469299135	18.7858210493496
10800000	-0.824913128418493	13.146738502611
10900000	-0.846647047794594	7.7973277944913
11000000	-0.871858774150592	1.70417205812667
11100000	-0.901126032393977	-4.84737737084598
11200000	-0.933719281682912	-11.7583132492276
11300000	-0.977834397947828	-19.309465345688
11400000	-1.02458152540023	-27.5478680865547
11500000	-1.08130114965006	-36.7520521178793
11600000	-1.09744476007674	-47.0190306365574
11700000	-1.10824931754681	-58.7929183173141
11800000	-1.1101542874051	-71.8792970482216
11900000	-1.11704830768742	-86.9355652317613
12000000	-1.1461286715947	-103.887748704244
12100000	-1.13430171357728	-122.658914757213
12200000	-1.17726918502399	-142.76247947474
12300000	-1.22287882635143	-163.80328933706
12400000	-1.30267789338819	175.175991016893
12500000	-1.4883232603199	154.605812652162
12600000	-1.73600787037785	134.804319802732
12700000	-2.19816565605386	116.12394356332
12800000	-2.98764551578935	98.970064888497
12900000	-4.35225586682789	85.6477899836733
13000000	-5.56702121100749	80.2168776246034
13100000	-5.78857743865714	74.408219134774
13200000	-6.4939457410045	64.6785734080233
13300000	-8.26542228849454	59.9962438538999
13400000	-9.47093985043681	66.0735865764874
13500000	-8.63489733408609	75.2930806004784
13600000	-7.14286277837724	73.7827596872001
13700000	-6.10535383019967	67.2991574195319
13800000	-5.49855832864599	58.9213539434747
13900000	-5.32816031159336	49.332100100235
14000000	-5.43298273590227	39.8852216077074
14100000	-5.82217251977281	30.3670419507218
14200000	-6.44421191642989	21.085330363591
14300000	-7.18559322016977	11.9592827908033
14400000	-7.92727205828082	0.602448534207301
14500000	-9.04017691153354	-16.2818331533502
14600000	-10.8085585933707	-40.9939769645688
14700000	-12.9546257003908	-80.0827780179115
14800000	-13.0509979260645	-132.227816684273
14900000	-10.594839509883	-176.184526272111
15000000	-7.9688680858018	152.777681125691
15100000	-6.22255879122313	133.459662592144
15200000	-5.00176249999963	117.368497046254
15300000	-4.21623869443721	103.678744108464
15400000	-3.7676134434172	92.3495996972806
15500000	-3.49242349574405	82.2442393114622
15600000	-3.46222515881524	73.2088682513447
15700000	-3.55570737556645	64.4398977477496
15800000	-3.9022760988131	56.3168799096578
15900000	-4.58899686677174	49.2738582544139
16000000	-5.5931895223023	43.5548877662826
16100000	-7.05595868985434	40.9280621852855
16200000	-8.75740286121726	45.226121479805
16300000	-9.49808373872888	58.8859661854283
16400000	-8.34033161041334	70.8042657438309
16500000	-6.61146636269362	74.0614139836259
16600000	-5.15402928340413	70.8535042098101
16700000	-4.15514734001343	65.7254108112066
16800000	-3.55657543539401	59.8457081749322
16900000	-3.15620487213162	54.2655326049952
17000000	-2.98163869519312	48.4477676072802
17100000	-2.88814745083716	42.7021606745274
17200000	-2.89354831884981	37.2353874002229
17300000	-3.02821012728479	31.5764238930595
17400000	-3.26015503744772	26.0875285153529
17500000	-3.62936094992128	20.2834879532629
17600000	-4.15332798531977	14.3255290122779
17700000	-4.90710239257045	8.02472531809884
17800000	-6.01641423562942	2.01311740788779
17900000	-7.64352594760818	-3.69617766853663
18000000	-10.1660258730016	-7.18010150978335
18100000	-13.9384322993837	-1.69492074811498
18200000	-17.4772661123683	31.8677263898963
18300000	-14.4442411848672	69.5615949478467
18400000	-10.5598806789222	76.6811425530649
18500000	-7.99940247936266	73.9915234295027
18600000	-6.2797314705996	68.6146021311613
18700000	-5.15339403352763	62.7665815320039
18800000	-4.39426622557806	56.6874089128059
18900000	-3.82908601584812	51.0144936775484
19000000	-3.40836639099887	45.5837507589849
19100000	-3.17551009270707	40.1595550472859
19200000	-3.0052661525584	35.0022109618393
19300000	-2.94011724697133	29.5685532579136
19400000	-2.94204352634001	24.970717273215
19500000	-2.99293439578937	20.1547094736648
19600000	-3.08465939902292	15.5217917868898
19700000	-3.21938630000608	10.4527528687762
19800000	-3.39420512485241	4.98476654525242
19900000	-3.65057152903319	-0.801557290286917
20000000	-3.9727494303772	-7.28377406389419
20100000	-4.43895992345184	-14.3038269475058
20200000	-5.0240874269307	-22.4584842864922
20300000	-5.77823132712976	-31.8910198450145
20400000	-6.83419889227688	-43.5547117549563
20500000	-8.20743267870808	-57.6270655844748
20600000	-9.99101428218175	-76.6649471681504
20700000	-11.9022713804698	-102.804618457348
20800000	-12.9635229673162	-138.882552259415
20900000	-12.2192306986156	-176.543376196573
21000000	-10.2466907471943	154.966048293953
21100000	-8.31612019439864	134.347402761608
21200000	-6.85729023085109	118.966332519924
21300000	-5.66838532693311	106.918637287811
21400000	-4.8397051131563	97.0831897719168
21500000	-4.18496277789136	88.4016139001814
21600000	-3.72541931037972	81.3407378049083
21700000	-3.29861603110969	74.762083533194
21800000	-3.03775930674026	69.1623849936895
21900000	-2.85094178459912	64.2003778816213
22000000	-2.67399152024042	59.3856345834143
22100000	-2.58148849789834	54.9818016350953
22200000	-2.54833328453599	51.0511701545896
22300000	-2.54342988603335	47.6647193790772
22400000	-2.53713997104642	44.0736271771903
22500000	-2.59039950420358	40.8080386870801
22600000	-2.63067588265513	37.8284949093481
22700000	-2.71566303681896	34.568398777052
22800000	-2.88554901688397	31.7587098314033
22900000	-3.06573566964101	28.772271760667
23000000	-3.30724983449042	25.9762324173207
23100000	-3.65072853000009	23.3170889718525
23200000	-4.03209802497405	21.011129328746
23300000	-4.50947107355756	19.1677582270609
23400000	-5.09606109449812	17.8592215110688
23500000	-5.82232513430779	17.7629552950335
23600000	-6.57255616116319	19.7188478667323
23700000	-7.21230055736818	23.2047404501869
23800000	-7.63890058705231	28.8703674075132
23900000	-7.60969200445332	35.1489690973145
24000000	-7.22670967242189	40.8411521404615
24100000	-6.60182054785117	44.9775169710387
24200000	-5.79489635554542	46.5784517483603
24300000	-5.06760923520899	47.0306788307363
24400000	-4.35272311574907	45.9824837058369
24500000	-3.81002240304841	43.6685190157749
24600000	-3.47164570923229	41.1472520988664
24700000	-3.23501751917194	38.8391636859741
24800000	-3.06673243146434	36.8336943286666
24900000	-2.9047069999821	34.3525277267555
25000000	-2.79269643530005	32.8663274468153
25100000	-2.75221879798741	30.5842228432908
25200000	-2.68624030689251	28.8502573855495
25300000	-2.65049268391252	27.0698971796798
25400000	-2.65728495000026	25.2877582381756
25500000	-2.70968936551288	23.6338021113681
25600000	-2.72981323811425	21.8634457299346
25700000	-2.83768741925625	20.2234567003762
25800000	-2.90915309161189	18.6362068375716
25900000	-3.04129855782527	17.1345883890552
26000000	-3.22457933404887	15.8159739787242
26100000	-3.4099050530827	14.4945284112221
26200000	-3.65000675038254	13.3182647760715
26300000	-3.90279163951402	12.4032160253701
26400000	-4.24322118139224	11.8937881930803
26500000	-4.55986721760316	11.9782705838786
26600000	-4.93274801478354	12.4115184160422
26700000	-5.32547073125017	13.6387694505497
26800000	-5.63281783969357	15.7448365971147
26900000	-5.89731875153727	18.4584831394651
27000000	-5.95576747936019	22.0939032786565
27100000	-5.88686733353453	25.5029316115857
27200000	-5.64815389259458	29.0378067773634
27300000	-5.23557175738277	31.5796340219263
27400000	-4.75963039429977	33.3808182733922
27500000	-4.29463367315105	34.3086593296206
27600000	-3.79901132459846	34.186372085345
27700000	-3.33500657320979	33.5517969812363
27800000	-2.96054396166532	32.2879387105769
27900000	-2.60808257075472	30.3139672696173
28000000	-2.49326201539927	27.7447515639248
28100000	-2.61149518731133	26.8176686502259
28200000	-2.53812215186471	27.1932215307004
28300000	-2.29763504056976	27.048444218835
28400000	-2.08519547709947	26.0731567565814
28500000	-1.91697130047823	25.1442892531583
28600000	-1.7738351499785	23.9393891677827
28700000	-1.6594777377684	22.7900432695864
28800000	-1.54354028013582	21.7121617078707
28900000	-1.46836667714576	20.6739274713773
29000000	-1.36767340467133	19.6231094906891
29100000	-1.30110809987134	18.4513438454472
29200000	-1.26493248825286	17.6165879801792
29300000	-1.18689727371749	16.5714758698168
29400000	-1.16129484818604	15.7578458456794
29500000	-1.11484693825581	14.7277308604297
29600000	-1.07313353040873	13.8288725375711
29700000	-1.01895474633249	12.7892262075947
29800000	-1.01558620875726	12.0287499282589
29900000	-0.964832745411964	11.2901153822422
30000000	-0.964705996835269	10.4301354298431
