!Keysight Technologies N9916A: A.13.10
!Date: Monday, 17 November 2025 21:44:46
!TimeZone: (UTC-06:00) Central Time (US & Canada)!Model: N9916A
!Serial: MY57273160
!GPS Latitude: 
!GPS Longitude: 
!GPS TimeStamp: 0001-01-01 00:00:00Z
!GPS Seconds Since Last Read: 0
!CHECKSUM:0140247554
!Correction: S11(ON U)
!S1P File: Measurement: S11:
# Hz S DB R 50
12000000	-1.58303613677926	-56.6454494475117
12080000	-1.72658146854268	-68.1286978208071
12160000	-1.82430411311206	-81.0011544839327
12240000	-1.95763759673041	-95.6216814677374
12320000	-2.04729984596966	-111.66096653865
12400000	-2.1219564304037	-129.252565920122
12480000	-2.19791200436725	-148.136137983207
12560000	-2.2621455449855	-167.3601172995
12640000	-2.32297655987727	173.268339221783
12720000	-2.41330856783075	154.503887213476
12800000	-2.62021098942252	136.763642274479
12880000	-2.86435186761185	119.876672641809
12960000	-3.30308898168165	104.323337266591
13040000	-3.91264637053753	90.3139578441074
13120000	-4.81716821808116	76.8789389410122
13200000	-6.04513985294394	65.839199781573
13280000	-7.77555555013008	58.2282214942694
13360000	-9.84632408497058	56.5241501930868
13440000	-11.3674282392275	63.397132443077
13520000	-11.4425739110823	73.7873543050125
13600000	-10.6916828647527	77.2668402809182
13680000	-10.3325227871523	78.8965465523335
13760000	-9.80543572791351	82.8417945876003
13840000	-8.63820831771273	83.8082044887489
13920000	-7.21767518464381	79.4357194356303
14000000	-6.38267330071091	72.3828693826207
14080000	-5.91268803469157	64.5513333372764
14160000	-5.71861929920869	56.427760099444
14240000	-5.8233707015838	48.0836636073876
14320000	-6.11820118024447	39.280501259112
14400000	-6.68104767793819	30.1441569555107
14480000	-7.69316219761636	20.1287703941641
14560000	-9.19726832729062	8.77754733672332
14640000	-11.69277227851	-4.24813439432047
14720000	-16.1190000691251	-21.1177664726391
14800000	-26.4721354502815	-71.3922302702027
14880000	-19.5634087954126	166.088224368881
14960000	-12.7279208334523	141.398191785921
15040000	-9.44198853452034	125.356090566921
15120000	-7.4672813132272	111.793601252007
15200000	-6.37411769495032	100.459737010941
15280000	-5.80959524732924	91.4667684003642
15360000	-5.48298676912943	85.1984697950333
15440000	-4.98817499761473	79.6368741088979
15520000	-4.63868348329654	73.3341400533375
15600000	-4.42784876882467	66.6683427668243
15680000	-4.45006588371631	60.2390014043369
15760000	-4.61774230544134	53.6780296489371
15840000	-4.97231662426546	47.2120382557384
15920000	-5.617410717891	41.2506896639695
16000000	-6.5781616942825	36.0174790846669
16080000	-7.94436473385314	32.0791244047733
16160000	-9.86177067841447	32.4370413175843
16240000	-11.9798831789601	41.0738953461098
16320000	-12.881459442037	60.9807443977369
16400000	-11.3418594057459	78.644087014373
16480000	-9.14192068088236	84.889995752595
16560000	-7.27226260816332	83.6384261022114
16640000	-6.02721485377714	79.8168272505844
16720000	-5.09375216858006	75.1851612311478
16800000	-4.48214074437625	70.383531190911
16880000	-4.06061172417163	65.81738125034
16960000	-3.71988267734442	61.9509476517595
17040000	-3.43380524960032	57.8612610509635
17120000	-3.14179553530197	53.8409719765671
17200000	-2.9697842944437	49.2467987484397
17280000	-2.90532369704239	44.6411828416304
17360000	-2.91306635897793	39.8402243905233
17440000	-2.99043058046652	35.1655828903031
17520000	-3.13574837089114	30.6518312937174
17600000	-3.3366725016564	25.9612929830677
17680000	-3.6342296533288	20.9740766441091
17760000	-4.02531234768409	15.7422086166534
17840000	-4.59091265700098	10.5202045349449
17920000	-5.33403554316615	4.761962546093
18000000	-6.34344781670938	-1.24444903550757
18080000	-7.79565237307856	-7.41894298799932
18160000	-9.92102278042448	-12.767045244815
18240000	-13.2686491316372	-15.7184030994736
18320000	-18.8843384411894	-6.41910048753375
18400000	-22.4373393076049	60.8294701418397
18480000	-15.6064528177515	92.1021077516348
18560000	-11.2428954501589	92.4523376714652
18640000	-8.61285258139463	87.3446799977984
18720000	-6.92836534417198	80.8678650634672
18800000	-5.74962852316781	74.3068128854782
18880000	-4.96827611259168	68.0122261371118
18960000	-4.45122697199687	62.2679012154672
19040000	-4.17825464678069	57.6735606341303
19120000	-3.92071494964665	53.5270148295134
19200000	-3.69066134967073	49.7530115764376
19280000	-3.50435361314175	46.1034984106635
19360000	-3.36162449144213	42.2889434961792
19440000	-3.27348496845111	38.6574662298093
19520000	-3.23489576423803	34.9869291813174
19600000	-3.22416217935197	31.2391158482662
19680000	-3.2712016836987	27.4837361807126
19760000	-3.33820101242562	23.747801153158
19840000	-3.49814925406038	19.937393066676
19920000	-3.65319384543	15.7857342941757
20000000	-3.89648775859226	11.7628768327676
20080000	-4.21045900981188	7.17252342809809
20160000	-4.60946560807239	2.57289078657632
20240000	-5.10640433033189	-2.60760017550568
20320000	-5.74367990204376	-7.87380564965355
20400000	-6.60912019540605	-13.5700773317077
20480000	-7.73878402321871	-19.8290769513579
20560000	-9.28338985037461	-26.9835193522768
20640000	-11.4600847793806	-34.7604664184645
20720000	-14.7681890073588	-44.1901041616918
20800000	-20.715937208637	-56.8203514329979
20880000	-34.8546122682684	-155.999167846118
20960000	-19.9386723665449	127.426307739174
21040000	-14.3211168979325	115.178151883915
21120000	-11.2227933680953	106.100880903598
21200000	-9.09348661944114	99.0276845431438
21280000	-7.63554631071967	92.1186693235085
21360000	-6.52959872054418	85.9800132352642
21440000	-5.69430200397416	80.7290917848262
21520000	-5.05838947636177	75.9728453853748
21600000	-4.52123715871672	71.5945991972507
21680000	-4.04517437588289	67.5075121808742
21760000	-3.69979066340049	63.1754797813164
21840000	-3.40089040524328	59.2527133599934
21920000	-3.21753799648992	55.3937925458387
22000000	-3.10271925210282	51.9497339278387
22080000	-2.98070132543575	48.7374314973175
22160000	-2.90828215071054	45.8376725145945
22240000	-2.90570581865958	43.0801050766346
22320000	-2.89184593715416	40.512239381987
22400000	-2.8842834728903	37.8717751199481
22480000	-2.90609004335475	35.3041256454885
22560000	-2.95713046395204	32.8571383493292
22640000	-3.01675766251916	30.540886058607
22720000	-3.12166532014624	28.0978939370127
22800000	-3.24738623514493	25.8131827655314
22880000	-3.39510378100777	23.4400318876291
22960000	-3.61128809584832	21.1669278318668
23040000	-3.85988087289604	18.9605756171988
23120000	-4.13769537836248	16.6399339683528
23200000	-4.543170799182	14.4818711283854
23280000	-5.00869505240983	12.8586105463748
23360000	-5.55511182513153	11.3760062949554
23440000	-6.22355470589046	10.8141992965782
23520000	-6.98089484933236	11.027885634752
23600000	-7.85729044103307	13.3059770534249
23680000	-8.62585922913858	17.5311393538516
23760000	-9.20351556698598	24.1783383453729
23840000	-9.32346628095095	32.4784054579376
23920000	-8.87506597377808	40.2434762733974
24000000	-8.05018742261154	45.4924432287143
24080000	-7.08134580975977	48.1885718294016
24160000	-6.24111513478432	48.5646903044178
24240000	-5.63747500146334	47.2363059398228
24320000	-5.2127959039862	46.2938665812399
24400000	-4.7599898605701	45.0573210681265
24480000	-4.38043141619443	44.0429905782676
24560000	-4.01703086421597	42.3316161271051
24640000	-3.7812376554318	40.7933151973459
24720000	-3.54426763213033	39.0367818452894
24800000	-3.34713728473889	37.1347558233229
24880000	-3.19537595513837	35.5256370346576
24960000	-3.07669372192964	33.5383175036734
25040000	-2.99750317797921	31.9819025620671
25120000	-2.92468894090941	30.1698043229039
25200000	-2.89100543181518	28.73465501941
25280000	-2.85827403184479	27.1145600239888
25360000	-2.83233610641018	25.5272247966783
25440000	-2.87040661089141	24.2003162189629
25520000	-2.87876455685037	22.7185980029349
25600000	-2.93069306458821	21.2128017239737
25680000	-2.98084193965491	19.9946500259459
25760000	-3.03676970411426	18.588771326381
25840000	-3.15983001519095	17.3580016115181
25920000	-3.26706103567029	16.178037373226
26000000	-3.4165477588102	15.1570153902544
26080000	-3.57530525107087	14.0344070281065
26160000	-3.7384174918102	13.2007703342569
26240000	-3.97026649430033	12.5026920912706
26320000	-4.18724352300965	11.9157264408457
26400000	-4.4049018488817	11.754982316772
26480000	-4.67963233519722	11.9099440554792
26560000	-4.98366609495627	12.4822913488632
26640000	-5.22256429554116	13.0938490279016
26720000	-5.49541236261235	14.4770937687984
26800000	-5.68319743542761	16.5193067752082
26880000	-5.81800984390444	18.6705104260241
26960000	-5.84717633358192	20.9594399020492
27040000	-5.78746531570421	23.7610399594199
27120000	-5.57033583657996	25.9283983273541
27200000	-5.34725606786457	27.8333026068819
27280000	-5.0436673940478	29.5436025569445
27360000	-4.69579492025835	30.5899783629419
27440000	-4.36716767310867	31.3169583748917
27520000	-4.00829452764004	31.3343944617283
27600000	-3.68932454948635	31.4867371393444
27680000	-3.30908589794432	30.8234360535594
27760000	-2.97141227923682	29.8748287108857
27840000	-2.75046779741248	28.0225710861283
27920000	-2.63260673663527	26.4212011142175
28000000	-2.56013328007055	25.742329953191
