!Keysight Technologies N9916A: A.13.10
!Date: Monday, 17 November 2025 20:26:29
!TimeZone: (UTC-06:00) Central Time (US & Canada)!Model: N9916A
!Serial: MY57273160
!GPS Latitude: 
!GPS Longitude: 
!GPS TimeStamp: 0001-01-01 00:00:00Z
!GPS Seconds Since Last Read: 0
!CHECKSUM:0165773271
!Correction: S11(ON U)
!S1P File: Measurement: S11:
# Hz S DB R 50
12000000	-1.58044209560765	-56.6689804800079
12080000	-1.7919773302979	-76.4706723303675
12160000	-2.00106619551556	-101.240315520072
12240000	-2.16806468968576	-130.889092384275
12320000	-2.20842259816521	-162.866257150258
12400000	-2.21024101738551	165.963529281793
12480000	-2.12632170348977	138.460596239808
12560000	-2.12342849915576	115.404721808222
12640000	-2.21957498385068	96.0437294539524
12720000	-2.40533212581522	80.0036506972749
12800000	-2.69035374473272	65.3570606220911
12880000	-3.24967485153455	52.0481610645173
12960000	-3.98285718360833	39.34960025142
13040000	-5.14182730659626	27.1224967458915
13120000	-7.06004753975798	13.9671832825225
13200000	-10.1865836238279	2.91163439968768
13280000	-16.2408874976955	0.441766621844388
13360000	-22.9193390441243	74.2191136652301
13440000	-14.2563399624486	105.029130493602
13520000	-10.0578638886245	100.598032952778
13600000	-7.71157125102523	92.1606449808796
13680000	-6.2926134587026	83.7727189219235
13760000	-5.39784703018239	75.6803496550886
13840000	-4.80972083884469	67.7963856844401
13920000	-4.50522567957733	61.1337958783318
14000000	-4.29306711853948	54.4460338667824
14080000	-4.29856043470381	47.9190176066221
14160000	-4.37903597977695	41.1959257753681
14240000	-4.67886949314566	34.4877236661867
14320000	-5.14179104918291	27.9847803526879
14400000	-5.81985831409767	20.752679988407
14480000	-6.86709647433917	13.3858053319251
14560000	-8.53076061971943	6.36280667016893
14640000	-11.0932921678832	0.189237912221681
14720000	-15.4973248444296	1.25651033306717
14800000	-21.6757431387057	41.7883317730962
14880000	-16.5200674234113	93.4155717840812
14960000	-11.6236714548103	97.7657348938752
15040000	-8.79927948887654	92.1487807946228
15120000	-7.02611864845214	85.4023104497487
15200000	-5.86277868122612	78.631702030432
15280000	-5.0321332775278	71.8519117811698
15360000	-4.51527839521496	65.5045778091448
15440000	-4.11589917221657	59.8737922939387
15520000	-3.87178479124003	53.9237098461136
15600000	-3.7524111981177	48.5141790676756
15680000	-3.76406366086857	43.167077896576
15760000	-3.80020216343055	37.809334404828
15840000	-3.95769556932156	32.3531838385776
15920000	-4.24357930416535	27.0340054001176
16000000	-4.64983662601395	21.3143142487161
16080000	-5.1928687535864	15.5458544159077
16160000	-6.00420008108967	9.74327878492676
16240000	-7.07448048127317	3.90521153341133
16320000	-8.59015504313282	-1.70532359832778
16400000	-10.8076853830105	-5.59715301347129
16480000	-14.0821154061268	-5.12128765619356
16560000	-18.3882977927411	8.51886149871215
16640000	-20.9701381853613	55.9598157961781
16720000	-16.6567626305487	88.8860209948669
16800000	-12.5891491809696	97.4948176798655
16880000	-9.54663265971365	96.113926416064
16960000	-7.30651504589052	90.7477430501133
17040000	-5.82168717474798	83.3267216312841
17120000	-4.82509212498085	76.196569869453
17200000	-4.18106985509727	69.7299163427301
17280000	-3.73952844039252	63.9685425590332
17360000	-3.45423038059947	58.2103947846739
17440000	-3.2465794574069	53.056868353542
17520000	-3.11342713403358	48.4372410078266
17600000	-3.03566118152888	43.8979513780008
17680000	-3.03193178414657	39.1985316386532
17760000	-3.06387026802622	34.7056336233232
17840000	-3.14594882571495	30.551289932078
17920000	-3.28971332871224	25.6387392880934
18000000	-3.48669984930515	20.9332820511545
18080000	-3.79895864842829	15.8982343303847
18160000	-4.19347126002559	10.5085295165029
18240000	-4.75776844716206	4.55256816980981
18320000	-5.50513825378124	-1.77579176431747
18400000	-6.60925623406758	-8.84009492793298
18480000	-8.17771034842032	-16.8603287268791
18560000	-10.5664389340609	-25.5438016315311
18640000	-14.7844039322873	-34.0162941253222
18720000	-24.7102788287332	-38.9062648636209
18800000	-22.7576890076016	116.619496573399
18880000	-13.8630100219562	107.808497846945
18960000	-10.1284121299412	97.6713588329978
19040000	-8.04400312845748	88.8569779414988
19120000	-6.71160707297962	81.2004657560939
19200000	-5.7871126519272	74.8936238408025
19280000	-5.14080814715716	69.6177787085172
19360000	-4.61171331772746	64.2185957943446
19440000	-4.27710070696431	59.4821708549206
19520000	-3.99427975935382	55.1798745192537
19600000	-3.85153898749681	50.8317258682494
19680000	-3.73373888371143	46.8770621703324
19760000	-3.69820779112976	43.0893885372201
19840000	-3.74999421811161	39.5975550597988
19920000	-3.83418704299573	36.0563717071472
20000000	-3.96932654238543	32.6897786009288
20080000	-4.19562922673751	29.3646374886477
20160000	-4.52633919629998	26.1709175872092
20240000	-4.91736582606777	23.2362172617179
20320000	-5.37778456741143	20.4066754817097
20400000	-6.02022976130977	18.4110737405873
20480000	-6.79254049856138	16.7789395102935
20560000	-7.73914890348906	16.4330202536922
20640000	-8.82448541347306	18.324205337218
20720000	-9.93254217888777	23.2167201792039
20800000	-10.731383979087	31.7252219817423
20880000	-10.8786331545848	42.5649974833662
20960000	-10.2816383470335	52.4994113130219
21040000	-9.25031783570514	59.2974707247582
21120000	-8.12187992084803	62.6618900713113
21200000	-7.0441139341871	64.4787815537802
21280000	-6.05663674754338	64.0335304014518
21360000	-5.19100487307042	62.4581657841759
21440000	-4.46215724306643	59.7358383822768
21520000	-3.93436670313569	56.6251398024901
21600000	-3.57037874850708	53.5715717531038
21680000	-3.27734047588258	50.7706881968463
21760000	-3.05653691912943	48.0270440774035
21840000	-2.86207770836407	45.4676364172665
21920000	-2.72516661632535	42.911421088649
22000000	-2.63233318144055	40.6595641554749
22080000	-2.49976660685427	38.3648218360492
22160000	-2.43223747265988	36.2680373282701
22240000	-2.40323082904747	34.2537468803506
22320000	-2.36376883868272	32.0813141908399
22400000	-2.37181363447727	30.0685176742394
22480000	-2.36472399850613	27.9524448789081
22560000	-2.38116201979523	25.9051841267662
22640000	-2.40602118086503	23.962725629123
22720000	-2.46202369351376	21.9151084573048
22800000	-2.52778554555364	19.7915762446809
22880000	-2.58077012316349	17.6302046881137
22960000	-2.73047770422147	15.3596326806507
23040000	-2.88242290593143	13.1886419780517
23120000	-3.08291772883729	10.7974626689767
23200000	-3.29905021923273	8.50679002354679
23280000	-3.628653645688	6.14047045621975
23360000	-3.99400177987542	3.68484888610431
23440000	-4.48473895146302	1.26659615802395
23520000	-5.05352008222471	-0.930959785125588
23600000	-5.83928115769022	-2.52880115445668
23680000	-6.74280358448671	-3.19776775820525
23760000	-7.88399771818528	-2.35101714136152
23840000	-9.09136125128689	1.69884507027849
23920000	-10.1330871985689	9.05462902203848
24000000	-10.7088489274788	19.3640272735442
24080000	-10.5891972455344	30.2294111381873
24160000	-9.88197161899136	40.3329218475096
24240000	-8.66851622784837	47.6687987013124
24320000	-7.32174357195696	50.6094588417658
24400000	-6.12913751542027	49.8958786220515
24480000	-5.2581265458616	47.9726470816734
24560000	-4.57553158966395	45.2333289437074
24640000	-4.16056931577813	42.8158944789648
24720000	-3.76214614656809	39.9467030772763
24800000	-3.49012041126019	37.5606216384468
24880000	-3.2889183824803	35.235006842732
24960000	-3.13561606400188	33.1416717094903
25040000	-3.0282451997334	30.9436372864519
25120000	-2.94611363767705	28.9503142278893
25200000	-2.87677912696984	27.0861624029005
25280000	-2.86649387226656	25.3681210958105
25360000	-2.83634900107269	23.5028741734833
25440000	-2.87192425662048	22.0395092872972
25520000	-2.90197988325328	20.2015981462487
25600000	-2.96728220196301	18.6864634903699
25680000	-3.0355578249511	17.3823385538283
25760000	-3.12230612146657	15.8787969117815
25840000	-3.27694247211187	14.545622532533
25920000	-3.415295874671	13.3690273498628
26000000	-3.59538187975042	12.2544878778885
26080000	-3.79973791518585	11.171200785109
26160000	-4.03604624704956	10.4432946214925
26240000	-4.31410530832048	9.76558214661649
26320000	-4.60843234832416	9.60178477165118
26400000	-4.892275762147	9.82654626427518
26480000	-5.20648860976454	10.6370672493708
26560000	-5.53665000427498	11.876451920631
26640000	-5.80582321235012	13.230828530913
26720000	-6.04270307124211	15.7365047135253
26800000	-6.14946216961396	18.5114704675713
26880000	-6.165215695844	21.3711742460689
26960000	-6.01484443920858	24.1185072486046
27040000	-5.80925778900247	26.870182101411
27120000	-5.51242102154128	28.8096907952221
27200000	-5.15783254255206	30.2174521609815
27280000	-4.82007761187412	31.3481064492127
27360000	-4.45745502742618	31.8055511378047
27440000	-4.13297426552153	31.9138794456921
27520000	-3.79987494437528	31.640099549361
27600000	-3.52109403402793	31.551520950574
27680000	-3.24209200405194	31.1244239116168
27760000	-2.95680202782059	30.6289085148023
27840000	-2.69085187646714	30.0474457447487
27920000	-2.34760656240005	29.0776085219341
28000000	-2.06655467016671	27.2071458436863
