!Keysight Technologies N9916A: A.13.10
!Date: Tuesday, 18 November 2025 17:49:22
!TimeZone: (UTC-06:00) Central Time (US & Canada)!Model: N9916A
!Serial: MY57273160
!GPS Latitude: 
!GPS Longitude: 
!GPS TimeStamp: 0001-01-01 00:00:00Z
!GPS Seconds Since Last Read: 0
!CHECKSUM:0461043569
!Correction: S11(Rdy)
!S1P File: Measurement: S11:
# Hz S DB R 50
10000000	-0.658397867608113	6.82158341968915
10100000	-0.663409835345592	1.97235260466438
10200000	-0.668581395070693	-2.74024654662203
10300000	-0.681778943840843	-7.5864946255322
10400000	-0.675435408798469	-12.3916634192985
10500000	-0.693410059351322	-17.3403310643776
10600000	-0.701534712344357	-22.4739047096431
10700000	-0.699597840859062	-27.5740008312073
10800000	-0.731552683846632	-32.9133861764964
10900000	-0.731385091282025	-38.5666717811864
11000000	-0.749820687415692	-44.4229350629038
11100000	-0.754455790194609	-50.8269571046229
11200000	-0.780634138322107	-57.6258981556022
11300000	-0.813620536535235	-65.1507944468157
11400000	-0.856466740765825	-73.5399851759718
11500000	-0.91707644149277	-82.8232193148805
11600000	-0.959909626478281	-93.7415064742275
11700000	-1.06617860177861	-106.72451497307
11800000	-1.18822965749243	-122.429567278193
11900000	-1.37476750004231	-141.983399609066
12000000	-1.64149054458702	-166.849224173706
12100000	-2.07988724552351	162.384219021019
12200000	-2.58891584065284	126.744669370354
12300000	-3.03794787541637	90.0001406928027
12400000	-3.33541794730422	56.5232416628808
12500000	-3.46653376105717	27.940465792492
12600000	-3.56583639345807	2.90131597387948
12700000	-4.02829676400066	-20.6051841434587
12800000	-5.11831506472005	-42.1980722191065
12900000	-6.85557968488479	-62.4404444928162
13000000	-9.80008816763322	-83.327851150005
13100000	-15.6159571266965	-109.058814998904
13200000	-28.9992276283356	125.261407383483
13300000	-14.2493134875971	52.2618949721326
13400000	-9.42802992244884	29.8567630478862
13500000	-6.92735833865102	12.561125718659
13600000	-5.56015370380107	-2.13546219466788
13700000	-4.79706573573605	-15.2420707987092
13800000	-4.42100989616825	-26.7652477633025
13900000	-4.19149721136309	-37.3913237580826
14000000	-4.16724665370473	-48.2053546604961
14100000	-4.30572578770367	-59.1821411251602
14200000	-4.70460133165934	-70.8713078328851
14300000	-5.3866667790223	-83.3521979167757
14400000	-6.5686739907867	-97.6876016624133
14500000	-8.41038867505804	-114.964541628607
14600000	-11.4170661279501	-137.961852545526
14700000	-16.4552546715931	-176.8511968601
14800000	-17.9306574705984	101.287100500464
14900000	-12.7824559847973	50.6927686116099
15000000	-9.20784561223064	25.8262345050217
15100000	-7.0415532450043	7.733135014955
15200000	-5.71167375669333	-6.72557546300099
15300000	-4.93708954352935	-19.3102510315315
15400000	-4.58396362897979	-30.1024165773251
15500000	-4.43227800547135	-38.9635359759389
15600000	-4.29549479679343	-46.852095317642
15700000	-4.26123090528832	-54.9005392218222
15800000	-4.38081203179707	-63.4063886700501
15900000	-4.68152097713619	-72.1112940272874
16000000	-5.23301700254	-81.1097502265144
16100000	-6.08116609350459	-90.7689387532492
16200000	-7.41620642695936	-101.078776656712
16300000	-9.57642609418281	-112.326290394824
16400000	-13.3242889775793	-124.504908091545
16500000	-21.9920792465928	-137.40720301665
16600000	-23.2299994355274	27.4570249090239
16700000	-13.3985390306135	15.0860351336801
16800000	-9.25463646278391	2.32842715693806
16900000	-6.90327873061438	-9.61850568705681
17000000	-5.45526856890651	-20.687208870325
17100000	-4.63274848621147	-30.6638181089082
17200000	-4.2278353919436	-38.3496732576854
17300000	-3.84414243506436	-44.4466825024045
17400000	-3.45970359322895	-50.421594872204
17500000	-3.21306109947637	-56.7583429374704
17600000	-3.07794245915594	-62.992549389393
17700000	-3.09928815327751	-69.0564477253142
17800000	-3.22298579692199	-75.1335058955206
17900000	-3.51430464828823	-81.291895086831
18000000	-3.97245315272772	-87.0662940139798
18100000	-4.70622976732911	-92.6146176528667
18200000	-5.78512200418514	-97.2557675133288
18300000	-7.36027444639643	-98.9930810968325
18400000	-9.26832229427017	-93.6075037272841
18500000	-10.3330396252175	-78.2837757968334
18600000	-9.25558257380056	-62.9238651865709
18700000	-7.29977339116065	-57.5376481721728
18800000	-5.65966318276113	-58.9021508732292
18900000	-4.51872199653543	-63.1023161318963
19000000	-3.78065886379289	-68.4979814317971
19100000	-3.34612382594534	-73.8879218294344
19200000	-3.16339145623763	-78.458128735068
19300000	-2.98779597194388	-82.3767289410197
19400000	-2.83279805507571	-86.2468272532202
19500000	-2.74227503676806	-90.2284325398341
19600000	-2.74694039180684	-94.3756326352373
19700000	-2.802760931526	-98.328904927315
19800000	-2.92671381748884	-102.241828160718
19900000	-3.14614430888601	-106.53633085086
20000000	-3.4171610765724	-109.704362236745
20100000	-3.82529104044269	-113.254216702957
20200000	-4.37325290463727	-116.15705240256
20300000	-5.06215743094816	-118.478816540023
20400000	-5.95322513726265	-119.061225041963
20500000	-6.86453767661933	-117.268503198679
20600000	-7.6894603021125	-111.968252272413
20700000	-7.96328951509833	-103.806923189538
20800000	-7.55346383784749	-95.9510411067288
20900000	-6.57048081264181	-91.3223512243435
21000000	-5.50163407305773	-90.0950245531854
21100000	-4.59654834338458	-91.3635629383464
21200000	-3.91117663641378	-94.2738327849284
21300000	-3.4803848138709	-96.9629334422078
21400000	-3.09122636894581	-99.2444724916468
21500000	-2.70677829933519	-101.719923253874
21600000	-2.40034629812653	-104.694460469708
21700000	-2.14704157173902	-107.767486676643
21800000	-1.9474164006214	-110.829051304927
21900000	-1.7997412545921	-113.684353310367
22000000	-1.66125101029297	-116.615901198227
22100000	-1.57689787056605	-119.500112554361
22200000	-1.51043436167544	-122.239751587848
22300000	-1.44348028626341	-124.994447090182
22400000	-1.41597165838751	-127.742996387076
22500000	-1.38266222186902	-130.32864770606
22600000	-1.36289669446615	-132.959555524586
22700000	-1.36295428894435	-135.684908107173
22800000	-1.36457550936724	-138.337995660824
22900000	-1.382393059604	-141.051991445041
23000000	-1.41890185827318	-143.759905210649
23100000	-1.47660083106252	-146.476769098461
23200000	-1.52736619025933	-149.348836216013
23300000	-1.61523849917922	-152.23120628887
23400000	-1.71322379267565	-155.364237529197
23500000	-1.8415274428897	-158.573754698798
23600000	-2.00234606769451	-161.783236028234
23700000	-2.24205962616328	-165.205656773995
23800000	-2.55494567204897	-168.991780835151
23900000	-2.9571110542036	-172.6184206324
24000000	-3.46588511390583	-175.738547300796
24100000	-3.97314583682683	-179.028173848701
24200000	-4.67148005181005	176.618767767352
24300000	-5.80486633996689	172.783307818842
24400000	-7.34354998167653	170.99620816432
24500000	-9.27127207628055	173.841251386491
24600000	-11.2284272511389	-175.427534412437
24700000	-11.7889384992483	-157.208217782159
24800000	-10.6051118763316	-142.250254900157
24900000	-8.89285505441534	-135.538228862444
25000000	-7.41465345197023	-134.519380623731
25100000	-6.2870186210232	-136.008026720491
25200000	-5.46783275870986	-138.930898373586
25300000	-4.87739804972412	-141.931137800247
25400000	-4.45070875023841	-145.220992029045
25500000	-4.15425407315138	-148.623581716377
25600000	-3.96107657107804	-151.855811051658
25700000	-3.86104354528032	-154.74219206361
25800000	-3.82622511180894	-157.587441533215
25900000	-3.81402058962745	-160.357962990183
26000000	-3.91899706855358	-162.885840658178
26100000	-4.02222861483949	-165.092234103487
26200000	-4.18089436301788	-167.18061431561
26300000	-4.41990627924347	-168.877557189434
26400000	-4.67363834798563	-170.080323920599
26500000	-4.9712699512369	-170.927891009984
26600000	-5.30847089389628	-170.927228768929
26700000	-5.62354470820967	-170.287367173122
26800000	-5.87250112179745	-168.795999294092
26900000	-6.01647004426492	-166.562287664188
27000000	-6.0247992778507	-163.742528447626
27100000	-5.80777675500581	-161.171927999214
27200000	-5.43632367062842	-159.055828203713
27300000	-5.00535308987589	-157.454381115685
27400000	-4.47686193299007	-157.296710194451
27500000	-3.97196828489489	-157.602102780856
27600000	-3.46857608590412	-158.623111686455
27700000	-2.99304565213665	-160.648898457709
27800000	-2.59465275961086	-163.479776622084
27900000	-2.39698533389421	-166.847949542152
28000000	-2.39560765642709	-168.88608230963
28100000	-2.32468734547636	-170.2281372442
28200000	-2.16001474628837	-171.692844074394
28300000	-2.00273879887452	-173.262261682809
28400000	-1.87099216646485	-175.194689171688
28500000	-1.75287717274503	-177.074139727857
28600000	-1.64422138571574	-178.963668620433
28700000	-1.56220061818993	179.34322011505
28800000	-1.49665160129028	177.480135379871
28900000	-1.44309467675501	175.648236735064
29000000	-1.3769609158115	173.862121509645
29100000	-1.33485552729887	172.288165970778
29200000	-1.29830510465355	170.538255164098
29300000	-1.25644278260131	168.890908736078
29400000	-1.22824729844208	167.285198142951
29500000	-1.21663695995103	165.683647490613
29600000	-1.18317855746993	164.014142776985
29700000	-1.15361137950468	162.41271408341
29800000	-1.15387725701874	161.013378293602
29900000	-1.14229022377331	159.501984682602
30000000	-1.11780742258684	157.851886705103
