!Keysight Technologies N9916A: A.13.10
!Date: Monday, 17 November 2025 21:06:30
!TimeZone: (UTC-06:00) Central Time (US & Canada)!Model: N9916A
!Serial: MY57273160
!GPS Latitude: 
!GPS Longitude: 
!GPS TimeStamp: 0001-01-01 00:00:00Z
!GPS Seconds Since Last Read: 0
!CHECKSUM:0348138740
!Correction: S11(ON U)
!S1P File: Measurement: S11:
# Hz S DB R 50
12000000	-1.43635914532997	-35.3040767589681
12080000	-1.57794825739171	-46.1124044668177
12160000	-1.74965421350534	-58.653532241523
12240000	-1.95293491297784	-73.5955606709707
12320000	-2.11327909627197	-90.5166581565469
12400000	-2.3269169735883	-110.261328274716
12480000	-2.50921265858749	-131.937196729668
12560000	-2.60992914961015	-154.985500687469
12640000	-2.67612720578521	-178.217255921609
12720000	-2.71725006347833	159.629044941186
12800000	-2.83044909133688	139.220512700212
12880000	-2.98528006460025	120.985880812069
12960000	-3.23918316490794	104.695835183773
13040000	-3.64081663857809	90.4486389836565
13120000	-4.25559012947934	77.5502691482359
13200000	-5.11234471978469	66.2772363767346
13280000	-6.31077998936451	57.2036620981866
13360000	-8.01971395059099	51.5402567025137
13440000	-9.88119353253805	52.4469058816994
13520000	-11.1579652830302	61.7691444890082
13600000	-11.094891335721	71.9643286831729
13680000	-10.2237337473996	79.0521367676304
13760000	-9.05324896519928	82.2080453114813
13840000	-7.83322929755288	80.8008858147977
13920000	-6.69618428653546	78.1458564813536
14000000	-5.93798908947871	73.1325288516225
14080000	-5.36925797834118	66.8563084296661
14160000	-4.99646605949307	60.6120718148334
14240000	-4.91876777033385	53.9074412816047
14320000	-4.99205590157652	47.3509900318103
14400000	-5.20689141579528	40.2502865898079
14480000	-5.68662438823057	32.9296963505123
14560000	-6.5040409027886	25.2835462525343
14640000	-7.77704520544407	17.4983714740964
14720000	-9.81325393451208	10.3142598353617
14800000	-13.267712676487	7.1072302198558
14880000	-18.9752154836804	24.9956557988395
14960000	-18.2088818316146	85.0412122162078
15040000	-13.0019380323784	97.4688678358702
15120000	-9.77522186727901	95.0043210347291
15200000	-7.8451958376207	89.5982579409767
15280000	-6.44393044173852	83.1055998119002
15360000	-5.51706192529045	76.2692246459353
15440000	-4.82240739647782	69.4012382064721
15520000	-4.40811728345704	62.6658307993092
15600000	-4.16990519408733	56.1290563129697
15680000	-4.09601912610022	49.9418062799888
15760000	-4.13001720515127	43.6153825260733
15840000	-4.3235929361212	37.294552066665
15920000	-4.66900414846498	31.0834592430572
16000000	-5.19095308861617	24.7379102860153
16080000	-5.93351952708924	18.1425160221248
16160000	-6.99853898382497	11.9555205343842
16240000	-8.50362438751367	6.29929944672383
16320000	-10.6567088982253	2.21438761370902
16400000	-13.7625636745573	3.80782452371731
16480000	-17.632099200346	19.9351187343893
16560000	-18.6260544241452	57.8622751568916
16640000	-15.7796167164462	82.0754959096666
16720000	-13.0317636407486	89.6239666232004
16800000	-10.8421739753601	93.6137923717505
16880000	-8.66972384149114	94.4903781656385
16960000	-6.64765029276901	90.6631865003821
17040000	-5.27049259404834	83.7110615327388
17120000	-4.3704023989468	76.4310674673941
17200000	-3.82840832992762	69.7499188819975
17280000	-3.467573573947	63.9193150929346
17360000	-3.24915405044437	58.0991148337901
17440000	-3.13174726902163	52.7877149990708
17520000	-3.03991413705723	48.1625621465534
17600000	-3.01695881987154	43.4323892204574
17680000	-3.06299570343148	38.6159708654642
17760000	-3.1533088075657	34.1471323993996
17840000	-3.26326182812671	29.6474244766341
17920000	-3.48658318124866	24.7421080456398
18000000	-3.7245015516437	19.6958773469459
18080000	-4.10203681782783	14.4243089290328
18160000	-4.56770321279921	8.82937133194875
18240000	-5.247301301525	2.72402780924755
18320000	-6.12568350236666	-4.25076076060409
18400000	-7.39892777478527	-11.4917210628072
18480000	-9.23476627425832	-20.0673247404427
18560000	-12.0394085591753	-29.7990877442289
18640000	-17.1863880412413	-41.1401322542457
18720000	-34.1155322820426	-75.5015179599042
18800000	-19.2571697211689	126.826253967283
18880000	-12.8580854990319	112.560493402149
18960000	-9.62855487049794	101.290001072825
19040000	-7.79856115091427	92.3396509199458
19120000	-6.55886781608982	84.4878190810427
19200000	-5.69551953618739	78.1455995815975
19280000	-5.06147181495479	72.6112711223581
19360000	-4.5506980588654	67.2768511478492
19440000	-4.21025961577652	62.4076757394747
19520000	-3.91836151149982	57.8799986880164
19600000	-3.75518609430937	53.4264305552312
19680000	-3.62943058383218	49.1448201290711
19760000	-3.62291567509233	44.5706754443663
19840000	-3.59963115922604	41.3659251993245
19920000	-3.628419297774	37.6266836294144
20000000	-3.73912141581773	34.0039798947168
20080000	-3.92912433457159	30.1268503965653
20160000	-4.16517782378125	26.4861147561604
20240000	-4.49440534639715	22.8865332484546
20320000	-4.91476397482273	19.2607675481338
20400000	-5.44281131930008	15.722187362834
20480000	-6.17492936235442	12.3181630628933
20560000	-7.09127456129312	9.55733812560213
20640000	-8.28703130239643	7.41421436314222
20720000	-9.77287425634288	7.76872770494645
20800000	-11.5864512670516	11.4425685968194
20880000	-13.2888545777871	22.1632045191325
20960000	-14.1675388422287	40.4037771915028
21040000	-13.308731180421	58.3034327105069
21120000	-11.5427384747357	68.6152348761317
21200000	-9.8188888700975	73.1251814558913
21280000	-8.4079548334503	73.7290246934696
21360000	-7.21411096874898	73.1131990243296
21440000	-6.15324406239458	71.6646238946135
21520000	-5.2903910358224	69.1014282636318
21600000	-4.52839473360444	65.5562293044018
21680000	-3.99251322141829	61.8984095130911
21760000	-3.6105724233653	58.013641201555
21840000	-3.32579450265539	54.4355078207224
21920000	-3.13960863314993	51.3033166936361
22000000	-2.99365899737629	48.3312876689181
22080000	-2.88136810220657	45.5930645287198
22160000	-2.79027025777909	43.036750260513
22240000	-2.76473824171896	40.6026763724607
22320000	-2.75810240808498	38.2216598881354
22400000	-2.72400557897893	35.8852789179465
22480000	-2.7537157396232	33.4405533113808
22560000	-2.80900390834467	31.2619086685634
22640000	-2.83963931837001	29.0016334366121
22720000	-2.94127497702052	26.7396625664044
22800000	-3.05509978899607	24.6689989835792
22880000	-3.17531846465277	22.4323051309036
22960000	-3.39081410339602	20.1777402035531
23040000	-3.62664955771101	18.1515299297047
23120000	-3.92045166299074	16.1499048880338
23200000	-4.28228511135243	14.2347976937016
23280000	-4.74169705978077	12.2181773616029
23360000	-5.24486817534973	10.9674049117425
23440000	-5.91850128337728	10.3177097740834
23520000	-6.60949488952332	10.6938408054112
23600000	-7.44915009758801	12.4670758506228
23680000	-8.23156118167455	16.7896971751194
23760000	-8.81884227837327	22.5901984139009
23840000	-9.0105252823869	30.4691202683183
23920000	-8.66045980737211	38.0162589512844
24000000	-7.98505972436673	43.9751531225262
24080000	-7.13168670695708	47.5886275572287
24160000	-6.20707430868896	49.6642016094926
24240000	-5.34120575191793	49.0680653487493
24320000	-4.67786799672994	47.6017179336924
24400000	-4.15735219399116	45.3209907010138
24480000	-3.79472086455384	43.2467626730898
24560000	-3.47183477469504	41.115741578618
24640000	-3.2802387927974	39.1143235682768
24720000	-3.08878429190578	37.1858897854146
24800000	-2.9260835622006	35.2013166828118
24880000	-2.83516409949818	33.511920023111
24960000	-2.73450660965285	31.6450899675702
25040000	-2.68635929029043	30.0100665588167
25120000	-2.64653747136118	28.3992480683943
25200000	-2.58638688608278	26.8971372169722
25280000	-2.58557703650865	25.2566927124957
25360000	-2.58128524634353	23.7692355887168
25440000	-2.59558945852471	22.4129290464144
25520000	-2.62239806450656	20.8592945048307
25600000	-2.68054165841635	19.5228583744858
25680000	-2.7280274679802	18.3273725404958
25760000	-2.79036647568292	16.9667681205161
25840000	-2.90612804603694	15.7392236398611
25920000	-2.98901438826506	14.5234673330543
26000000	-3.11524642553395	13.4724009664933
26080000	-3.266930203037	12.2673512079797
26160000	-3.44067422655859	11.3062507044164
26240000	-3.64289277531882	10.4688010220981
26320000	-3.85582025003812	9.68053140827824
26400000	-4.09207971718038	9.07022369048315
26480000	-4.35193558247404	8.99506977013277
26560000	-4.62821875784152	9.11535155834513
26640000	-4.9368673231411	9.46735971886188
26720000	-5.22873250848784	10.5270859401172
26800000	-5.49757483802537	11.8381693921185
26880000	-5.75019723675519	13.7939493802433
26960000	-5.90517070456686	16.0833063885654
27040000	-5.91139368726565	18.8252338205154
27120000	-5.83787661814409	21.1748391936096
27200000	-5.67851622488083	23.507489853079
27280000	-5.46741377077126	25.4543999281294
27360000	-5.21114783105434	27.1871706939954
27440000	-4.89418010984225	28.3022862890345
27520000	-4.62116399266219	28.9483227803638
27600000	-4.3396521316128	29.5143640429704
27680000	-4.0539924107709	29.8490026569686
27760000	-3.7811215863386	30.4787624724304
27840000	-3.41253668793491	30.7470213462456
27920000	-2.97193975370254	29.899088893156
28000000	-2.64976244128562	28.1441046643794
